
T20E8 000:072 SEGGER J-Link V6.10i Log File (0001ms, 0034ms total)
T20E8 000:072 DLL Compiled: Oct 25 2016 19:31:51 (0001ms, 0034ms total)
T20E8 000:072 Logging started @ 2018-04-12 11:47 (0001ms, 0034ms total)
T20E8 000:073 JLINK_SetWarnOutHandler(...) (0000ms, 0034ms total)
T20E8 000:073 JLINK_OpenEx(...)
Firmware: J-Link V9 compiled Sep  1 2016 18:29:50
Hardware: V9.40
S/N: 59402448
Feature(s): RDI, GDB, FlashDL, FlashBP, JFlashWEBSRV Webserver running on local port 19080 (0027ms, 0061ms total)
T20E8 000:073   returns O.K. (0027ms, 0061ms total)
T20E8 000:100 JLINK_SetErrorOutHandler(...) (0000ms, 0061ms total)
T20E8 000:100 JLINK_ExecCommand("ProjectFile = "C:\Users\Feng zipeng\Desktop\ALL Data\平衡机器人项目\平衡车控制程序V2-1\JLinkSettings.ini"", ...). Device "CORTEX-M3" selected.  returns 0x00 (0113ms, 0174ms total)
T20E8 000:215 JLINK_ExecCommand("Device = STM32F103C8", ...). Device "STM32F103C8" selected.  returns 0x00 (0007ms, 0181ms total)
T20E8 000:222 JLINK_ExecCommand("DisableConnectionTimeout", ...).   returns 0x01 (0000ms, 0181ms total)
T20E8 000:222 JLINK_GetHardwareVersion()  returns 0x16F30 (0000ms, 0181ms total)
T20E8 000:222 JLINK_GetDLLVersion()  returns 61009 (0000ms, 0181ms total)
T20E8 000:222 JLINK_GetFirmwareString(...) (0000ms, 0181ms total)
T20E8 000:228 JLINK_GetDLLVersion()  returns 61009 (0000ms, 0181ms total)
T20E8 000:228 JLINK_GetCompileDateTime() (0000ms, 0181ms total)
T20E8 000:230 JLINK_GetFirmwareString(...) (0000ms, 0181ms total)
T20E8 000:232 JLINK_GetHardwareVersion()  returns 0x16F30 (0000ms, 0181ms total)
T20E8 000:239 JLINK_TIF_Select(JLINKARM_TIF_SWD)  returns 0x00 (0001ms, 0182ms total)
T20E8 000:240 JLINK_SetSpeed(33000) (0000ms, 0182ms total)
T20E8 000:240 JLINK_GetId() >0x108 TIF>Found SWD-DP with ID 0x1BA01477 >0x0D TIF> >0x28 TIF> >0x0D TIF> >0x28 TIF> >0x0D TIF> >0x28 TIF> >0x0D TIF> >0x28 TIF> >0x0D TIF> >0x21 TIF> >0x0D TIF> >0x28 TIF> >0x0D TIF> >0x28 TIF> >0x0D TIF> >0x28 TIF> >0x0D TIF> >0x21 TIF> >0x0D TIF> >0x21 TIF> >0x0D TIF> >0x28 TIF> >0x0D TIF> >0x21 TIF> >0x0D TIF> >0x21 TIF> >0x0D TIF> >0x28 TIF> >0x0D TIF> >0x28 TIF> >0x0D TIF> >0x28 TIF> >0x0D TIF> >0x21 TIF> >0x0D TIF> >0x21 TIF> >0x0D TIF> >0x28 TIF> >0x0D TIF>
 >0x21 TIF> >0x0D TIF> >0x21 TIF> >0x0D TIF> >0x28 TIF> >0x0D TIF> >0x21 TIF> >0x0D TIF> >0x21 TIF> >0x0D TIF> >0x28 TIF> >0x0D TIF> >0x21 TIF> >0x0D TIF> >0x21 TIF> >0x0D TIF> >0x28 TIF> >0x0D TIF> >0x21 TIF> >0x0D TIF> >0x21 TIF> >0x108 TIF>Found SWD-DP with ID 0x1BA01477 >0x0D TIF> >0x28 TIF> >0x0D TIF> >0x28 TIF> >0x0D TIF> >0x28 TIF> >0x0D TIF> >0x28 TIF> >0x0D TIF> >0x21 TIF> >0x0D TIF> >0x28 TIF> >0x0D TIF> >0x28 TIF> >0x0D TIF> >0x21 TIF> >0x0D TIF> >0x21 TIF> >0x0D TIF> >0x21 TIF>
AP-IDR: 0x14770011, Type: AHB-AP >0x0D TIF> >0x28 TIF> >0x0D TIF> >0x28 TIF> >0x0D TIF> >0x28 TIF> >0x0D TIF> >0x21 TIF> >0x0D TIF> >0x21 TIF> >0x0D TIF> >0x28 TIF> >0x0D TIF> >0x21 TIF> >0x0D TIF> >0x21 TIF>Found Cortex-M3 r1p1, Little endian. -- CPU_ReadMem(4 bytes @ 0xE000EDF0) -- CPU_WriteMem(4 bytes @ 0xE000EDF0) -- CPU_ReadMem(4 bytes @ 0xE0002000)FPUnit: 6 code (BP) slots and 2 literal slots -- CPU_ReadMem(4 bytes @ 0xE000EDFC) -- CPU_WriteMem(4 bytes @ 0xE000EDFC)
 -- CPU_ReadMem(4 bytes @ 0xE0001000) -- CPU_WriteMem(4 bytes @ 0xE0001000) -- CPU_ReadMem(4 bytes @ 0xE000ED88) -- CPU_WriteMem(4 bytes @ 0xE000ED88) -- CPU_ReadMem(4 bytes @ 0xE000ED88) -- CPU_WriteMem(4 bytes @ 0xE000ED88)CoreSight components:ROMTbl 0 @ E00FF000 -- CPU_ReadMem(16 bytes @ 0xE00FF000) -- CPU_ReadMem(16 bytes @ 0xE000EFF0) -- CPU_ReadMem(16 bytes @ 0xE000EFE0)ROMTbl 0 [0]: FFF0F000, CID: B105E00D, PID: 001BB000 SCS -- CPU_ReadMem(16 bytes @ 0xE0001FF0)
 -- CPU_ReadMem(16 bytes @ 0xE0001FE0)ROMTbl 0 [1]: FFF02000, CID: B105E00D, PID: 001BB002 DWT -- CPU_ReadMem(16 bytes @ 0xE0002FF0) -- CPU_ReadMem(16 bytes @ 0xE0002FE0)ROMTbl 0 [2]: FFF03000, CID: B105E00D, PID: 000BB003 FPB -- CPU_ReadMem(16 bytes @ 0xE0000FF0) -- CPU_ReadMem(16 bytes @ 0xE0000FE0)ROMTbl 0 [3]: FFF01000, CID: B105E00D, PID: 001BB001 ITM -- CPU_ReadMem(16 bytes @ 0xE00FF010) -- CPU_ReadMem(16 bytes @ 0xE0040FF0) -- CPU_ReadMem(16 bytes @ 0xE0040FE0)
ROMTbl 0 [4]: FFF41000, CID: B105900D, PID: 001BB923 TPIU-Lite >0x0D TIF> >0x21 TIF>  returns 0x1BA01477 (0050ms, 0232ms total)
T20E8 000:290 JLINK_GetDLLVersion()  returns 61009 (0000ms, 0232ms total)
T20E8 000:290 JLINK_CORE_GetFound()  returns 0x30000FF (0000ms, 0232ms total)
T20E8 000:290 JLINK_GetDebugInfo(0x100) -- Value=0xE00FF000  returns 0x00 (0000ms, 0232ms total)
T20E8 000:292 JLINK_GetDebugInfo(0x100) -- Value=0xE00FF000  returns 0x00 (0000ms, 0232ms total)
T20E8 000:292 JLINK_GetDebugInfo(0x101) -- Value=0x00000000  returns 0x00 (0000ms, 0232ms total)
T20E8 000:292 JLINK_ReadMem (0xE0041FF0, 0x0010 Bytes, ...) -- CPU is running -- CPU_ReadMem(16 bytes @ 0xE0041FF0) - Data: 00 00 00 00 00 00 00 00 00 00 00 00 00 00 00 00  returns 0x00 (0000ms, 0232ms total)
T20E8 000:292 JLINK_GetDebugInfo(0x102) -- Value=0x00000000  returns 0x00 (0000ms, 0232ms total)
T20E8 000:292 JLINK_GetDebugInfo(0x103) -- Value=0xE0040000  returns 0x00 (0000ms, 0232ms total)
T20E8 000:292 JLINK_GetDebugInfo(0x104) -- Value=0xE0000000  returns 0x00 (0000ms, 0232ms total)
T20E8 000:292 JLINK_GetDebugInfo(0x105) -- Value=0xE0001000  returns 0x00 (0000ms, 0232ms total)
T20E8 000:292 JLINK_GetDebugInfo(0x106) -- Value=0xE0002000  returns 0x00 (0000ms, 0232ms total)
T20E8 000:292 JLINK_GetDebugInfo(0x107) -- Value=0xE000E000  returns 0x00 (0000ms, 0232ms total)
T20E8 000:292 JLINK_GetDebugInfo(0x10C) -- Value=0xE000EDF0  returns 0x00 (0000ms, 0232ms total)
T20E8 000:292 JLINK_ReadMemU32(0xE000ED00, 0x0001 Items, ...) -- CPU is running -- CPU_ReadMem(4 bytes @ 0xE000ED00) - Data: 31 C2 1F 41  returns 0x01 (0000ms, 0232ms total)
T20E8 000:292 JLINK_SetResetType(JLINKARM_RESET_TYPE_NORMAL)  returns JLINKARM_RESET_TYPE_NORMAL (0000ms, 0232ms total)
T20E8 000:292 JLINK_Reset() -- CPU is running -- CPU_WriteMem(4 bytes @ 0xE000EDF0) -- CPU is running -- CPU_WriteMem(4 bytes @ 0xE000EDFC) >0x35 TIF> -- CPU is running -- CPU_WriteMem(4 bytes @ 0xE000ED0C) -- CPU is running -- CPU_ReadMem(4 bytes @ 0xE000EDF0) -- CPU is running -- CPU_ReadMem(4 bytes @ 0xE000EDF0) -- CPU is running -- CPU_WriteMem(4 bytes @ 0xE000EDF0) -- CPU is running -- CPU_WriteMem(4 bytes @ 0xE000EDFC) -- CPU is running -- CPU_ReadMem(4 bytes @ 0xE000EDF0)
 -- CPU_WriteMem(4 bytes @ 0xE0002000) -- CPU_ReadMem(4 bytes @ 0xE000EDFC) -- CPU_ReadMem(4 bytes @ 0xE0001000) (0016ms, 0248ms total)
T20E8 000:308 JLINK_Halt()  returns 0x00 (0000ms, 0248ms total)
T20E8 000:308 JLINK_IsHalted()  returns TRUE (0000ms, 0248ms total)
T20E8 000:308 JLINK_ReadMemU32(0xE000EDF0, 0x0001 Items, ...) -- CPU_ReadMem(4 bytes @ 0xE000EDF0) - Data: 03 00 03 00  returns 0x01 (0000ms, 0248ms total)
T20E8 000:308 JLINK_WriteU32(0xE000EDF0, 0xA05F0003) -- CPU_WriteMem(4 bytes @ 0xE000EDF0)  returns 0x00 (0000ms, 0248ms total)
T20E8 000:308 JLINK_WriteU32(0xE000EDFC, 0x01000000) -- CPU_WriteMem(4 bytes @ 0xE000EDFC)  returns 0x00 (0001ms, 0249ms total)
T20E8 000:319 JLINK_GetHWStatus(...)  returns 0x00 (0001ms, 0250ms total)
T20E8 000:325 JLINK_GetNumBPUnits(Type = 0xFFFFFF00)  returns 0x06 (0000ms, 0250ms total)
T20E8 000:325 JLINK_GetNumBPUnits(Type = 0xF0)  returns 0x2000 (0000ms, 0250ms total)
T20E8 000:325 JLINK_GetNumWPUnits()  returns 0x04 (0000ms, 0250ms total)
T20E8 000:331 JLINK_GetSpeed()  returns 0x2EE0 (0000ms, 0250ms total)
T20E8 000:335 JLINK_ReadMemU32(0xE000E004, 0x0001 Items, ...) -- CPU_ReadMem(4 bytes @ 0xE000E004) - Data: 01 00 00 00  returns 0x01 (0000ms, 0250ms total)
T20E8 000:335 JLINK_ReadMemU32(0xE000E004, 0x0001 Items, ...) -- CPU_ReadMem(4 bytes @ 0xE000E004) - Data: 01 00 00 00  returns 0x01 (0000ms, 0250ms total)
T20E8 000:335 JLINK_WriteMem(0xE0001000, 0x001C Bytes, ...) - Data: 01 00 00 00 00 00 00 00 00 00 00 00 00 00 00 00 ... -- CPU_WriteMem(28 bytes @ 0xE0001000)  returns 0x1C (0001ms, 0251ms total)
T20E8 000:336 JLINK_ReadMem (0xE0001000, 0x001C Bytes, ...) -- CPU_ReadMem(28 bytes @ 0xE0001000) - Data: 01 00 00 40 00 00 00 00 00 00 00 00 00 00 00 00 ...  returns 0x00 (0000ms, 0251ms total)
T20E8 000:336 JLINK_Halt()  returns 0x00 (0000ms, 0251ms total)
T20E8 000:336 JLINK_IsHalted()  returns TRUE (0000ms, 0251ms total)
T20E8 000:338 JLINK_WriteMem(0x20000000, 0x0164 Bytes, ...) - Data: 00 BE 0A E0 0D 78 2D 06 68 40 08 24 40 00 00 D3 ... -- CPU_WriteMem(356 bytes @ 0x20000000)  returns 0x164 (0003ms, 0254ms total)
T20E8 000:341 JLINK_WriteReg(R0, 0x08000000)  returns 0x00 (0000ms, 0254ms total)
T20E8 000:341 JLINK_WriteReg(R1, 0x00B71B00)  returns 0x00 (0000ms, 0254ms total)
T20E8 000:341 JLINK_WriteReg(R2, 0x00000001)  returns 0x00 (0000ms, 0254ms total)
T20E8 000:341 JLINK_WriteReg(R3, 0x00000000)  returns 0x00 (0000ms, 0254ms total)
T20E8 000:341 JLINK_WriteReg(R4, 0x00000000)  returns 0x00 (0000ms, 0254ms total)
T20E8 000:341 JLINK_WriteReg(R5, 0x00000000)  returns 0x00 (0000ms, 0254ms total)
T20E8 000:341 JLINK_WriteReg(R6, 0x00000000)  returns 0x00 (0000ms, 0254ms total)
T20E8 000:341 JLINK_WriteReg(R7, 0x00000000)  returns 0x00 (0000ms, 0254ms total)
T20E8 000:341 JLINK_WriteReg(R8, 0x00000000)  returns 0x00 (0000ms, 0254ms total)
T20E8 000:341 JLINK_WriteReg(R9, 0x20000160)  returns 0x00 (0000ms, 0254ms total)
T20E8 000:341 JLINK_WriteReg(R10, 0x00000000)  returns 0x00 (0000ms, 0254ms total)
T20E8 000:341 JLINK_WriteReg(R11, 0x00000000)  returns 0x00 (0000ms, 0254ms total)
T20E8 000:341 JLINK_WriteReg(R12, 0x00000000)  returns 0x00 (0000ms, 0254ms total)
T20E8 000:341 JLINK_WriteReg(R13 (SP), 0x20001000)  returns 0x00 (0000ms, 0254ms total)
T20E8 000:341 JLINK_WriteReg(R14, 0x20000001)  returns 0x00 (0000ms, 0254ms total)
T20E8 000:341 JLINK_WriteReg(R15 (PC), 0x20000038)  returns 0x00 (0000ms, 0254ms total)
T20E8 000:341 JLINK_WriteReg(XPSR, 0x01000000)  returns 0x00 (0000ms, 0254ms total)
T20E8 000:341 JLINK_WriteReg(MSP, 0x20001000)  returns 0x00 (0000ms, 0254ms total)
T20E8 000:341 JLINK_WriteReg(PSP, 0x20001000)  returns 0x00 (0000ms, 0254ms total)
T20E8 000:341 JLINK_WriteReg(CFBP, 0x00000000)  returns 0x00 (0000ms, 0254ms total)
T20E8 000:341 JLINK_SetBPEx(Addr = 0x20000000, Type = 0xFFFFFFF2) -- CPU_ReadMem(2 bytes @ 0x20000000)  returns 0x00000001 (0000ms, 0254ms total)
T20E8 000:341 JLINK_Go() -- CPU_WriteMem(2 bytes @ 0x20000000) -- CPU_ReadMem(4 bytes @ 0xE0001000) -- CPU_WriteMem(4 bytes @ 0xE0002008) -- CPU_WriteMem(4 bytes @ 0xE000200C) -- CPU_WriteMem(4 bytes @ 0xE0002010) -- CPU_WriteMem(4 bytes @ 0xE0002014) -- CPU_WriteMem(4 bytes @ 0xE0002018) -- CPU_WriteMem(4 bytes @ 0xE000201C) -- CPU_WriteMem(4 bytes @ 0xE0001004) (0004ms, 0258ms total)
T20E8 000:345 JLINK_IsHalted() -- CPU_ReadMem(2 bytes @ 0x20000000)  returns TRUE (0002ms, 0260ms total)
T20E8 000:347 JLINK_ReadReg(R15 (PC))  returns 0x20000000 (0000ms, 0258ms total)
T20E8 000:347 JLINK_ClrBPEx(BPHandle = 0x00000001)  returns 0x00 (0000ms, 0258ms total)
T20E8 000:347 JLINK_ReadReg(R0)  returns 0x00000000 (0000ms, 0258ms total)
T20E8 000:347 JLINK_WriteReg(R0, 0x08000000)  returns 0x00 (0000ms, 0258ms total)
T20E8 000:347 JLINK_WriteReg(R1, 0x00B71B00)  returns 0x00 (0000ms, 0258ms total)
T20E8 000:347 JLINK_WriteReg(R2, 0x00000001)  returns 0x00 (0000ms, 0258ms total)
T20E8 000:347 JLINK_WriteReg(R3, 0x00000000)  returns 0x00 (0000ms, 0258ms total)
T20E8 000:347 JLINK_WriteReg(R4, 0x00000000)  returns 0x00 (0000ms, 0258ms total)
T20E8 000:347 JLINK_WriteReg(R5, 0x00000000)  returns 0x00 (0000ms, 0258ms total)
T20E8 000:347 JLINK_WriteReg(R6, 0x00000000)  returns 0x00 (0000ms, 0258ms total)
T20E8 000:347 JLINK_WriteReg(R7, 0x00000000)  returns 0x00 (0000ms, 0258ms total)
T20E8 000:347 JLINK_WriteReg(R8, 0x00000000)  returns 0x00 (0000ms, 0258ms total)
T20E8 000:347 JLINK_WriteReg(R9, 0x20000160)  returns 0x00 (0000ms, 0258ms total)
T20E8 000:347 JLINK_WriteReg(R10, 0x00000000)  returns 0x00 (0000ms, 0258ms total)
T20E8 000:348 JLINK_WriteReg(R11, 0x00000000)  returns 0x00 (0000ms, 0258ms total)
T20E8 000:348 JLINK_WriteReg(R12, 0x00000000)  returns 0x00 (0000ms, 0258ms total)
T20E8 000:348 JLINK_WriteReg(R13 (SP), 0x20001000)  returns 0x00 (0000ms, 0258ms total)
T20E8 000:348 JLINK_WriteReg(R14, 0x20000001)  returns 0x00 (0000ms, 0258ms total)
T20E8 000:348 JLINK_WriteReg(R15 (PC), 0x2000007C)  returns 0x00 (0000ms, 0258ms total)
T20E8 000:348 JLINK_WriteReg(XPSR, 0x01000000)  returns 0x00 (0000ms, 0258ms total)
T20E8 000:348 JLINK_WriteReg(MSP, 0x20001000)  returns 0x00 (0000ms, 0258ms total)
T20E8 000:348 JLINK_WriteReg(PSP, 0x20001000)  returns 0x00 (0000ms, 0258ms total)
T20E8 000:348 JLINK_WriteReg(CFBP, 0x00000000)  returns 0x00 (0000ms, 0258ms total)
T20E8 000:348 JLINK_SetBPEx(Addr = 0x20000000, Type = 0xFFFFFFF2)  returns 0x00000002 (0000ms, 0258ms total)
T20E8 000:348 JLINK_Go() -- CPU_ReadMem(4 bytes @ 0xE0001000) (0001ms, 0259ms total)
T20E8 000:349 JLINK_IsHalted()  returns FALSE (0000ms, 0259ms total)
T20E8 000:388 JLINK_IsHalted() -- CPU_ReadMem(2 bytes @ 0x20000000)  returns TRUE (0002ms, 0261ms total)
T20E8 000:390 JLINK_ReadReg(R15 (PC))  returns 0x20000000 (0000ms, 0259ms total)
T20E8 000:390 JLINK_ClrBPEx(BPHandle = 0x00000002)  returns 0x00 (0000ms, 0259ms total)
T20E8 000:390 JLINK_ReadReg(R0)  returns 0x00000000 (0000ms, 0259ms total)
T20E8 000:443 JLINK_WriteReg(R0, 0x00000001)  returns 0x00 (0000ms, 0259ms total)
T20E8 000:443 JLINK_WriteReg(R1, 0x00B71B00)  returns 0x00 (0000ms, 0259ms total)
T20E8 000:443 JLINK_WriteReg(R2, 0x00000001)  returns 0x00 (0000ms, 0259ms total)
T20E8 000:443 JLINK_WriteReg(R3, 0x00000000)  returns 0x00 (0000ms, 0259ms total)
T20E8 000:443 JLINK_WriteReg(R4, 0x00000000)  returns 0x00 (0000ms, 0259ms total)
T20E8 000:443 JLINK_WriteReg(R5, 0x00000000)  returns 0x00 (0001ms, 0260ms total)
T20E8 000:444 JLINK_WriteReg(R6, 0x00000000)  returns 0x00 (0000ms, 0260ms total)
T20E8 000:444 JLINK_WriteReg(R7, 0x00000000)  returns 0x00 (0000ms, 0260ms total)
T20E8 000:444 JLINK_WriteReg(R8, 0x00000000)  returns 0x00 (0000ms, 0260ms total)
T20E8 000:444 JLINK_WriteReg(R9, 0x20000160)  returns 0x00 (0000ms, 0260ms total)
T20E8 000:444 JLINK_WriteReg(R10, 0x00000000)  returns 0x00 (0000ms, 0260ms total)
T20E8 000:444 JLINK_WriteReg(R11, 0x00000000)  returns 0x00 (0000ms, 0260ms total)
T20E8 000:444 JLINK_WriteReg(R12, 0x00000000)  returns 0x00 (0000ms, 0260ms total)
T20E8 000:444 JLINK_WriteReg(R13 (SP), 0x20001000)  returns 0x00 (0000ms, 0260ms total)
T20E8 000:444 JLINK_WriteReg(R14, 0x20000001)  returns 0x00 (0000ms, 0260ms total)
T20E8 000:444 JLINK_WriteReg(R15 (PC), 0x2000006A)  returns 0x00 (0000ms, 0260ms total)
T20E8 000:444 JLINK_WriteReg(XPSR, 0x01000000)  returns 0x00 (0000ms, 0260ms total)
T20E8 000:444 JLINK_WriteReg(MSP, 0x20001000)  returns 0x00 (0000ms, 0260ms total)
T20E8 000:444 JLINK_WriteReg(PSP, 0x20001000)  returns 0x00 (0000ms, 0260ms total)
T20E8 000:444 JLINK_WriteReg(CFBP, 0x00000000)  returns 0x00 (0000ms, 0260ms total)
T20E8 000:444 JLINK_SetBPEx(Addr = 0x20000000, Type = 0xFFFFFFF2)  returns 0x00000003 (0000ms, 0260ms total)
T20E8 000:444 JLINK_Go() -- CPU_ReadMem(4 bytes @ 0xE0001000) (0001ms, 0261ms total)
T20E8 000:445 JLINK_IsHalted() -- CPU_ReadMem(2 bytes @ 0x20000000)  returns TRUE (0002ms, 0263ms total)
T20E8 000:447 JLINK_ReadReg(R15 (PC))  returns 0x20000000 (0000ms, 0261ms total)
T20E8 000:447 JLINK_ClrBPEx(BPHandle = 0x00000003)  returns 0x00 (0000ms, 0261ms total)
T20E8 000:447 JLINK_ReadReg(R0)  returns 0x00000000 (0000ms, 0261ms total)
T20E8 000:452 JLINK_WriteMem(0x20000000, 0x0164 Bytes, ...) - Data: 00 BE 0A E0 0D 78 2D 06 68 40 08 24 40 00 00 D3 ... -- CPU_WriteMem(356 bytes @ 0x20000000)  returns 0x164 (0001ms, 0262ms total)
T20E8 000:453 JLINK_WriteReg(R0, 0x08000000)  returns 0x00 (0000ms, 0262ms total)
T20E8 000:453 JLINK_WriteReg(R1, 0x00B71B00)  returns 0x00 (0000ms, 0262ms total)
T20E8 000:453 JLINK_WriteReg(R2, 0x00000002)  returns 0x00 (0000ms, 0262ms total)
T20E8 000:453 JLINK_WriteReg(R3, 0x00000000)  returns 0x00 (0000ms, 0262ms total)
T20E8 000:453 JLINK_WriteReg(R4, 0x00000000)  returns 0x00 (0000ms, 0262ms total)
T20E8 000:453 JLINK_WriteReg(R5, 0x00000000)  returns 0x00 (0000ms, 0262ms total)
T20E8 000:453 JLINK_WriteReg(R6, 0x00000000)  returns 0x00 (0000ms, 0262ms total)
T20E8 000:453 JLINK_WriteReg(R7, 0x00000000)  returns 0x00 (0000ms, 0262ms total)
T20E8 000:453 JLINK_WriteReg(R8, 0x00000000)  returns 0x00 (0000ms, 0262ms total)
T20E8 000:453 JLINK_WriteReg(R9, 0x20000160)  returns 0x00 (0000ms, 0262ms total)
T20E8 000:453 JLINK_WriteReg(R10, 0x00000000)  returns 0x00 (0000ms, 0262ms total)
T20E8 000:453 JLINK_WriteReg(R11, 0x00000000)  returns 0x00 (0000ms, 0262ms total)
T20E8 000:453 JLINK_WriteReg(R12, 0x00000000)  returns 0x00 (0000ms, 0262ms total)
T20E8 000:453 JLINK_WriteReg(R13 (SP), 0x20001000)  returns 0x00 (0000ms, 0262ms total)
T20E8 000:453 JLINK_WriteReg(R14, 0x20000001)  returns 0x00 (0000ms, 0262ms total)
T20E8 000:453 JLINK_WriteReg(R15 (PC), 0x20000038)  returns 0x00 (0000ms, 0262ms total)
T20E8 000:453 JLINK_WriteReg(XPSR, 0x01000000)  returns 0x00 (0001ms, 0263ms total)
T20E8 000:454 JLINK_WriteReg(MSP, 0x20001000)  returns 0x00 (0000ms, 0263ms total)
T20E8 000:454 JLINK_WriteReg(PSP, 0x20001000)  returns 0x00 (0000ms, 0263ms total)
T20E8 000:454 JLINK_WriteReg(CFBP, 0x00000000)  returns 0x00 (0000ms, 0263ms total)
T20E8 000:454 JLINK_SetBPEx(Addr = 0x20000000, Type = 0xFFFFFFF2) -- CPU_ReadMem(2 bytes @ 0x20000000)  returns 0x00000004 (0000ms, 0263ms total)
T20E8 000:454 JLINK_Go() -- CPU_WriteMem(2 bytes @ 0x20000000) -- CPU_ReadMem(4 bytes @ 0xE0001000) (0001ms, 0264ms total)
T20E8 000:455 JLINK_IsHalted() -- CPU_ReadMem(2 bytes @ 0x20000000)  returns TRUE (0002ms, 0266ms total)
T20E8 000:457 JLINK_ReadReg(R15 (PC))  returns 0x20000000 (0001ms, 0265ms total)
T20E8 000:458 JLINK_ClrBPEx(BPHandle = 0x00000004)  returns 0x00 (0000ms, 0265ms total)
T20E8 000:458 JLINK_ReadReg(R0)  returns 0x00000000 (0000ms, 0265ms total)
T20E8 000:458 JLINK_WriteMem(0x20000164, 0x0400 Bytes, ...) - Data: 88 06 00 20 FD 03 00 08 B1 01 00 08 B3 01 00 08 ... -- CPU_WriteMem(1024 bytes @ 0x20000164)  returns 0x400 (0004ms, 0269ms total)
T20E8 000:462 JLINK_WriteReg(R0, 0x08000000)  returns 0x00 (0000ms, 0269ms total)
T20E8 000:462 JLINK_WriteReg(R1, 0x00000400)  returns 0x00 (0000ms, 0269ms total)
T20E8 000:462 JLINK_WriteReg(R2, 0x20000164)  returns 0x00 (0000ms, 0269ms total)
T20E8 000:462 JLINK_WriteReg(R3, 0x00000000)  returns 0x00 (0000ms, 0269ms total)
T20E8 000:462 JLINK_WriteReg(R4, 0x00000000)  returns 0x00 (0000ms, 0269ms total)
T20E8 000:462 JLINK_WriteReg(R5, 0x00000000)  returns 0x00 (0000ms, 0269ms total)
T20E8 000:462 JLINK_WriteReg(R6, 0x00000000)  returns 0x00 (0000ms, 0269ms total)
T20E8 000:462 JLINK_WriteReg(R7, 0x00000000)  returns 0x00 (0000ms, 0269ms total)
T20E8 000:462 JLINK_WriteReg(R8, 0x00000000)  returns 0x00 (0000ms, 0269ms total)
T20E8 000:462 JLINK_WriteReg(R9, 0x20000160)  returns 0x00 (0000ms, 0269ms total)
T20E8 000:462 JLINK_WriteReg(R10, 0x00000000)  returns 0x00 (0000ms, 0269ms total)
T20E8 000:462 JLINK_WriteReg(R11, 0x00000000)  returns 0x00 (0000ms, 0269ms total)
T20E8 000:462 JLINK_WriteReg(R12, 0x00000000)  returns 0x00 (0000ms, 0269ms total)
T20E8 000:462 JLINK_WriteReg(R13 (SP), 0x20001000)  returns 0x00 (0000ms, 0269ms total)
T20E8 000:462 JLINK_WriteReg(R14, 0x20000001)  returns 0x00 (0000ms, 0269ms total)
T20E8 000:462 JLINK_WriteReg(R15 (PC), 0x200000F4)  returns 0x00 (0000ms, 0269ms total)
T20E8 000:462 JLINK_WriteReg(XPSR, 0x01000000)  returns 0x00 (0000ms, 0269ms total)
T20E8 000:462 JLINK_WriteReg(MSP, 0x20001000)  returns 0x00 (0000ms, 0269ms total)
T20E8 000:462 JLINK_WriteReg(PSP, 0x20001000)  returns 0x00 (0000ms, 0269ms total)
T20E8 000:462 JLINK_WriteReg(CFBP, 0x00000000)  returns 0x00 (0000ms, 0269ms total)
T20E8 000:462 JLINK_SetBPEx(Addr = 0x20000000, Type = 0xFFFFFFF2)  returns 0x00000005 (0000ms, 0269ms total)
T20E8 000:462 JLINK_Go() -- CPU_ReadMem(4 bytes @ 0xE0001000) (0001ms, 0270ms total)
T20E8 000:463 JLINK_IsHalted()  returns FALSE (0001ms, 0271ms total)
T20E8 000:470 JLINK_IsHalted()  returns FALSE (0000ms, 0270ms total)
T20E8 000:472 JLINK_IsHalted()  returns FALSE (0000ms, 0270ms total)
T20E8 000:473 JLINK_IsHalted()  returns FALSE (0000ms, 0270ms total)
T20E8 000:475 JLINK_IsHalted()  returns FALSE (0000ms, 0270ms total)
T20E8 000:476 JLINK_IsHalted()  returns FALSE (0000ms, 0270ms total)
T20E8 000:478 JLINK_IsHalted()  returns FALSE (0000ms, 0270ms total)
T20E8 000:479 JLINK_IsHalted()  returns FALSE (0000ms, 0270ms total)
T20E8 000:481 JLINK_IsHalted()  returns FALSE (0000ms, 0270ms total)
T20E8 000:482 JLINK_IsHalted()  returns FALSE (0000ms, 0270ms total)
T20E8 000:484 JLINK_IsHalted()  returns FALSE (0000ms, 0270ms total)
T20E8 000:485 JLINK_IsHalted()  returns FALSE (0000ms, 0270ms total)
T20E8 000:487 JLINK_IsHalted()  returns FALSE (0000ms, 0270ms total)
T20E8 000:489 JLINK_IsHalted()  returns FALSE (0000ms, 0270ms total)
T20E8 000:490 JLINK_IsHalted()  returns FALSE (0000ms, 0270ms total)
T20E8 000:492 JLINK_IsHalted()  returns FALSE (0000ms, 0270ms total)
T20E8 000:493 JLINK_IsHalted()  returns FALSE (0000ms, 0270ms total)
T20E8 000:495 JLINK_IsHalted() -- CPU_ReadMem(2 bytes @ 0x20000000)  returns TRUE (0002ms, 0272ms total)
T20E8 000:497 JLINK_ReadReg(R15 (PC))  returns 0x20000000 (0000ms, 0270ms total)
T20E8 000:497 JLINK_ClrBPEx(BPHandle = 0x00000005)  returns 0x00 (0000ms, 0270ms total)
T20E8 000:497 JLINK_ReadReg(R0)  returns 0x00000000 (0000ms, 0270ms total)
T20E8 000:497 JLINK_WriteMem(0x20000164, 0x0400 Bytes, ...) - Data: 06 48 00 47 FE E7 FE E7 FE E7 FE E7 FE E7 FE E7 ... -- CPU_WriteMem(1024 bytes @ 0x20000164)  returns 0x400 (0004ms, 0274ms total)
T20E8 000:501 JLINK_WriteReg(R0, 0x08000400)  returns 0x00 (0000ms, 0274ms total)
T20E8 000:501 JLINK_WriteReg(R1, 0x00000400)  returns 0x00 (0000ms, 0274ms total)
T20E8 000:501 JLINK_WriteReg(R2, 0x20000164)  returns 0x00 (0000ms, 0274ms total)
T20E8 000:501 JLINK_WriteReg(R3, 0x00000000)  returns 0x00 (0001ms, 0275ms total)
T20E8 000:502 JLINK_WriteReg(R4, 0x00000000)  returns 0x00 (0000ms, 0275ms total)
T20E8 000:502 JLINK_WriteReg(R5, 0x00000000)  returns 0x00 (0000ms, 0275ms total)
T20E8 000:502 JLINK_WriteReg(R6, 0x00000000)  returns 0x00 (0000ms, 0275ms total)
T20E8 000:502 JLINK_WriteReg(R7, 0x00000000)  returns 0x00 (0000ms, 0275ms total)
T20E8 000:502 JLINK_WriteReg(R8, 0x00000000)  returns 0x00 (0000ms, 0275ms total)
T20E8 000:502 JLINK_WriteReg(R9, 0x20000160)  returns 0x00 (0000ms, 0275ms total)
T20E8 000:502 JLINK_WriteReg(R10, 0x00000000)  returns 0x00 (0000ms, 0275ms total)
T20E8 000:502 JLINK_WriteReg(R11, 0x00000000)  returns 0x00 (0000ms, 0275ms total)
T20E8 000:502 JLINK_WriteReg(R12, 0x00000000)  returns 0x00 (0000ms, 0275ms total)
T20E8 000:502 JLINK_WriteReg(R13 (SP), 0x20001000)  returns 0x00 (0000ms, 0275ms total)
T20E8 000:502 JLINK_WriteReg(R14, 0x20000001)  returns 0x00 (0000ms, 0275ms total)
T20E8 000:502 JLINK_WriteReg(R15 (PC), 0x200000F4)  returns 0x00 (0000ms, 0275ms total)
T20E8 000:502 JLINK_WriteReg(XPSR, 0x01000000)  returns 0x00 (0000ms, 0275ms total)
T20E8 000:502 JLINK_WriteReg(MSP, 0x20001000)  returns 0x00 (0000ms, 0275ms total)
T20E8 000:502 JLINK_WriteReg(PSP, 0x20001000)  returns 0x00 (0000ms, 0275ms total)
T20E8 000:502 JLINK_WriteReg(CFBP, 0x00000000)  returns 0x00 (0000ms, 0275ms total)
T20E8 000:502 JLINK_SetBPEx(Addr = 0x20000000, Type = 0xFFFFFFF2)  returns 0x00000006 (0000ms, 0275ms total)
T20E8 000:502 JLINK_Go() -- CPU_ReadMem(4 bytes @ 0xE0001000) (0001ms, 0276ms total)
T20E8 000:503 JLINK_IsHalted()  returns FALSE (0001ms, 0277ms total)
T20E8 000:506 JLINK_IsHalted()  returns FALSE (0000ms, 0276ms total)
T20E8 000:507 JLINK_IsHalted()  returns FALSE (0000ms, 0276ms total)
T20E8 000:509 JLINK_IsHalted()  returns FALSE (0000ms, 0276ms total)
T20E8 000:510 JLINK_IsHalted()  returns FALSE (0000ms, 0276ms total)
T20E8 000:512 JLINK_IsHalted()  returns FALSE (0000ms, 0276ms total)
T20E8 000:514 JLINK_IsHalted()  returns FALSE (0000ms, 0276ms total)
T20E8 000:515 JLINK_IsHalted()  returns FALSE (0001ms, 0277ms total)
T20E8 000:517 JLINK_IsHalted()  returns FALSE (0000ms, 0276ms total)
T20E8 000:519 JLINK_IsHalted()  returns FALSE (0001ms, 0277ms total)
T20E8 000:525 JLINK_IsHalted()  returns FALSE (0000ms, 0276ms total)
T20E8 000:527 JLINK_IsHalted()  returns FALSE (0000ms, 0276ms total)
T20E8 000:528 JLINK_IsHalted()  returns FALSE (0000ms, 0276ms total)
T20E8 000:530 JLINK_IsHalted()  returns FALSE (0000ms, 0276ms total)
T20E8 000:531 JLINK_IsHalted()  returns FALSE (0000ms, 0276ms total)
T20E8 000:533 JLINK_IsHalted()  returns FALSE (0000ms, 0276ms total)
T20E8 000:536 JLINK_IsHalted() -- CPU_ReadMem(2 bytes @ 0x20000000)  returns TRUE (0003ms, 0279ms total)
T20E8 000:539 JLINK_ReadReg(R15 (PC))  returns 0x20000000 (0000ms, 0276ms total)
T20E8 000:539 JLINK_ClrBPEx(BPHandle = 0x00000006)  returns 0x00 (0000ms, 0276ms total)
T20E8 000:539 JLINK_ReadReg(R0)  returns 0x00000000 (0000ms, 0276ms total)
T20E8 000:539 JLINK_WriteMem(0x20000164, 0x0400 Bytes, ...) - Data: 70 47 10 B5 01 46 00 22 00 23 00 20 4A 11 01 2A ... -- CPU_WriteMem(1024 bytes @ 0x20000164)  returns 0x400 (0005ms, 0281ms total)
T20E8 000:544 JLINK_WriteReg(R0, 0x08000800)  returns 0x00 (0000ms, 0281ms total)
T20E8 000:544 JLINK_WriteReg(R1, 0x00000400)  returns 0x00 (0000ms, 0281ms total)
T20E8 000:544 JLINK_WriteReg(R2, 0x20000164)  returns 0x00 (0000ms, 0281ms total)
T20E8 000:544 JLINK_WriteReg(R3, 0x00000000)  returns 0x00 (0000ms, 0281ms total)
T20E8 000:544 JLINK_WriteReg(R4, 0x00000000)  returns 0x00 (0000ms, 0281ms total)
T20E8 000:544 JLINK_WriteReg(R5, 0x00000000)  returns 0x00 (0000ms, 0281ms total)
T20E8 000:544 JLINK_WriteReg(R6, 0x00000000)  returns 0x00 (0000ms, 0281ms total)
T20E8 000:544 JLINK_WriteReg(R7, 0x00000000)  returns 0x00 (0000ms, 0281ms total)
T20E8 000:544 JLINK_WriteReg(R8, 0x00000000)  returns 0x00 (0000ms, 0281ms total)
T20E8 000:544 JLINK_WriteReg(R9, 0x20000160)  returns 0x00 (0000ms, 0281ms total)
T20E8 000:544 JLINK_WriteReg(R10, 0x00000000)  returns 0x00 (0000ms, 0281ms total)
T20E8 000:544 JLINK_WriteReg(R11, 0x00000000)  returns 0x00 (0000ms, 0281ms total)
T20E8 000:544 JLINK_WriteReg(R12, 0x00000000)  returns 0x00 (0000ms, 0281ms total)
T20E8 000:544 JLINK_WriteReg(R13 (SP), 0x20001000)  returns 0x00 (0000ms, 0281ms total)
T20E8 000:544 JLINK_WriteReg(R14, 0x20000001)  returns 0x00 (0000ms, 0281ms total)
T20E8 000:544 JLINK_WriteReg(R15 (PC), 0x200000F4)  returns 0x00 (0000ms, 0281ms total)
T20E8 000:544 JLINK_WriteReg(XPSR, 0x01000000)  returns 0x00 (0000ms, 0281ms total)
T20E8 000:544 JLINK_WriteReg(MSP, 0x20001000)  returns 0x00 (0000ms, 0281ms total)
T20E8 000:544 JLINK_WriteReg(PSP, 0x20001000)  returns 0x00 (0000ms, 0281ms total)
T20E8 000:544 JLINK_WriteReg(CFBP, 0x00000000)  returns 0x00 (0000ms, 0281ms total)
T20E8 000:544 JLINK_SetBPEx(Addr = 0x20000000, Type = 0xFFFFFFF2)  returns 0x00000007 (0000ms, 0281ms total)
T20E8 000:544 JLINK_Go() -- CPU_ReadMem(4 bytes @ 0xE0001000) (0003ms, 0284ms total)
T20E8 000:547 JLINK_IsHalted()  returns FALSE (0000ms, 0284ms total)
T20E8 000:549 JLINK_IsHalted()  returns FALSE (0000ms, 0284ms total)
T20E8 000:550 JLINK_IsHalted()  returns FALSE (0000ms, 0284ms total)
T20E8 000:552 JLINK_IsHalted()  returns FALSE (0000ms, 0284ms total)
T20E8 000:553 JLINK_IsHalted()  returns FALSE (0000ms, 0284ms total)
T20E8 000:555 JLINK_IsHalted()  returns FALSE (0000ms, 0284ms total)
T20E8 000:556 JLINK_IsHalted()  returns FALSE (0000ms, 0284ms total)
T20E8 000:558 JLINK_IsHalted()  returns FALSE (0000ms, 0284ms total)
T20E8 000:560 JLINK_IsHalted()  returns FALSE (0000ms, 0284ms total)
T20E8 000:561 JLINK_IsHalted()  returns FALSE (0000ms, 0284ms total)
T20E8 000:563 JLINK_IsHalted()  returns FALSE (0000ms, 0284ms total)
T20E8 000:564 JLINK_IsHalted()  returns FALSE (0000ms, 0284ms total)
T20E8 000:566 JLINK_IsHalted()  returns FALSE (0000ms, 0284ms total)
T20E8 000:567 JLINK_IsHalted()  returns FALSE (0000ms, 0284ms total)
T20E8 000:569 JLINK_IsHalted()  returns FALSE (0000ms, 0284ms total)
T20E8 000:571 JLINK_IsHalted()  returns FALSE (0000ms, 0284ms total)
T20E8 000:573 JLINK_IsHalted()  returns FALSE (0000ms, 0284ms total)
T20E8 000:574 JLINK_IsHalted()  returns FALSE (0000ms, 0284ms total)
T20E8 000:576 JLINK_IsHalted()  returns FALSE (0000ms, 0284ms total)
T20E8 000:577 JLINK_IsHalted() -- CPU_ReadMem(2 bytes @ 0x20000000)  returns TRUE (0002ms, 0286ms total)
T20E8 000:579 JLINK_ReadReg(R15 (PC))  returns 0x20000000 (0000ms, 0284ms total)
T20E8 000:579 JLINK_ClrBPEx(BPHandle = 0x00000007)  returns 0x00 (0000ms, 0284ms total)
T20E8 000:579 JLINK_ReadReg(R0)  returns 0x00000000 (0000ms, 0284ms total)
T20E8 000:580 JLINK_WriteMem(0x20000164, 0x0400 Bytes, ...) - Data: 0C 49 14 31 08 60 70 47 01 46 00 20 00 22 09 4B ... -- CPU_WriteMem(1024 bytes @ 0x20000164)  returns 0x400 (0004ms, 0288ms total)
T20E8 000:584 JLINK_WriteReg(R0, 0x08000C00)  returns 0x00 (0000ms, 0288ms total)
T20E8 000:584 JLINK_WriteReg(R1, 0x00000400)  returns 0x00 (0000ms, 0288ms total)
T20E8 000:584 JLINK_WriteReg(R2, 0x20000164)  returns 0x00 (0000ms, 0288ms total)
T20E8 000:584 JLINK_WriteReg(R3, 0x00000000)  returns 0x00 (0000ms, 0288ms total)
T20E8 000:584 JLINK_WriteReg(R4, 0x00000000)  returns 0x00 (0000ms, 0288ms total)
T20E8 000:584 JLINK_WriteReg(R5, 0x00000000)  returns 0x00 (0000ms, 0288ms total)
T20E8 000:584 JLINK_WriteReg(R6, 0x00000000)  returns 0x00 (0000ms, 0288ms total)
T20E8 000:584 JLINK_WriteReg(R7, 0x00000000)  returns 0x00 (0000ms, 0288ms total)
T20E8 000:584 JLINK_WriteReg(R8, 0x00000000)  returns 0x00 (0000ms, 0288ms total)
T20E8 000:584 JLINK_WriteReg(R9, 0x20000160)  returns 0x00 (0000ms, 0288ms total)
T20E8 000:584 JLINK_WriteReg(R10, 0x00000000)  returns 0x00 (0000ms, 0288ms total)
T20E8 000:584 JLINK_WriteReg(R11, 0x00000000)  returns 0x00 (0000ms, 0288ms total)
T20E8 000:584 JLINK_WriteReg(R12, 0x00000000)  returns 0x00 (0000ms, 0288ms total)
T20E8 000:584 JLINK_WriteReg(R13 (SP), 0x20001000)  returns 0x00 (0000ms, 0288ms total)
T20E8 000:584 JLINK_WriteReg(R14, 0x20000001)  returns 0x00 (0000ms, 0288ms total)
T20E8 000:584 JLINK_WriteReg(R15 (PC), 0x200000F4)  returns 0x00 (0000ms, 0288ms total)
T20E8 000:584 JLINK_WriteReg(XPSR, 0x01000000)  returns 0x00 (0000ms, 0288ms total)
T20E8 000:584 JLINK_WriteReg(MSP, 0x20001000)  returns 0x00 (0000ms, 0288ms total)
T20E8 000:584 JLINK_WriteReg(PSP, 0x20001000)  returns 0x00 (0000ms, 0288ms total)
T20E8 000:584 JLINK_WriteReg(CFBP, 0x00000000)  returns 0x00 (0000ms, 0288ms total)
T20E8 000:584 JLINK_SetBPEx(Addr = 0x20000000, Type = 0xFFFFFFF2)  returns 0x00000008 (0000ms, 0288ms total)
T20E8 000:584 JLINK_Go() -- CPU_ReadMem(4 bytes @ 0xE0001000) (0002ms, 0290ms total)
T20E8 000:586 JLINK_IsHalted()  returns FALSE (0000ms, 0290ms total)
T20E8 000:587 JLINK_IsHalted()  returns FALSE (0000ms, 0290ms total)
T20E8 000:589 JLINK_IsHalted()  returns FALSE (0000ms, 0290ms total)
T20E8 000:590 JLINK_IsHalted()  returns FALSE (0000ms, 0290ms total)
T20E8 000:592 JLINK_IsHalted()  returns FALSE (0000ms, 0290ms total)
T20E8 000:593 JLINK_IsHalted()  returns FALSE (0000ms, 0290ms total)
T20E8 000:595 JLINK_IsHalted()  returns FALSE (0000ms, 0290ms total)
T20E8 000:596 JLINK_IsHalted()  returns FALSE (0000ms, 0290ms total)
T20E8 000:598 JLINK_IsHalted()  returns FALSE (0000ms, 0290ms total)
T20E8 000:599 JLINK_IsHalted()  returns FALSE (0000ms, 0290ms total)
T20E8 000:601 JLINK_IsHalted()  returns FALSE (0000ms, 0290ms total)
T20E8 000:602 JLINK_IsHalted()  returns FALSE (0000ms, 0290ms total)
T20E8 000:604 JLINK_IsHalted()  returns FALSE (0000ms, 0290ms total)
T20E8 000:606 JLINK_IsHalted()  returns FALSE (0000ms, 0290ms total)
T20E8 000:607 JLINK_IsHalted()  returns FALSE (0000ms, 0290ms total)
T20E8 000:608 JLINK_IsHalted()  returns FALSE (0000ms, 0290ms total)
T20E8 000:610 JLINK_IsHalted()  returns FALSE (0000ms, 0290ms total)
T20E8 000:612 JLINK_IsHalted()  returns FALSE (0000ms, 0290ms total)
T20E8 000:614 JLINK_IsHalted()  returns FALSE (0000ms, 0290ms total)
T20E8 000:615 JLINK_IsHalted()  returns FALSE (0000ms, 0290ms total)
T20E8 000:617 JLINK_IsHalted() -- CPU_ReadMem(2 bytes @ 0x20000000)  returns TRUE (0002ms, 0292ms total)
T20E8 000:619 JLINK_ReadReg(R15 (PC))  returns 0x20000000 (0000ms, 0290ms total)
T20E8 000:619 JLINK_ClrBPEx(BPHandle = 0x00000008)  returns 0x00 (0000ms, 0290ms total)
T20E8 000:619 JLINK_ReadReg(R0)  returns 0x00000000 (0000ms, 0290ms total)
T20E8 000:619 JLINK_WriteMem(0x20000164, 0x0400 Bytes, ...) - Data: 05 15 2A 43 44 4D A8 42 02 D0 49 4D A8 42 1D D1 ... -- CPU_WriteMem(1024 bytes @ 0x20000164)  returns 0x400 (0004ms, 0294ms total)
T20E8 000:623 JLINK_WriteReg(R0, 0x08001000)  returns 0x00 (0000ms, 0294ms total)
T20E8 000:623 JLINK_WriteReg(R1, 0x00000400)  returns 0x00 (0000ms, 0294ms total)
T20E8 000:623 JLINK_WriteReg(R2, 0x20000164)  returns 0x00 (0000ms, 0294ms total)
T20E8 000:623 JLINK_WriteReg(R3, 0x00000000)  returns 0x00 (0000ms, 0294ms total)
T20E8 000:623 JLINK_WriteReg(R4, 0x00000000)  returns 0x00 (0001ms, 0295ms total)
T20E8 000:624 JLINK_WriteReg(R5, 0x00000000)  returns 0x00 (0000ms, 0295ms total)
T20E8 000:624 JLINK_WriteReg(R6, 0x00000000)  returns 0x00 (0000ms, 0295ms total)
T20E8 000:624 JLINK_WriteReg(R7, 0x00000000)  returns 0x00 (0000ms, 0295ms total)
T20E8 000:624 JLINK_WriteReg(R8, 0x00000000)  returns 0x00 (0000ms, 0295ms total)
T20E8 000:624 JLINK_WriteReg(R9, 0x20000160)  returns 0x00 (0000ms, 0295ms total)
T20E8 000:624 JLINK_WriteReg(R10, 0x00000000)  returns 0x00 (0000ms, 0295ms total)
T20E8 000:624 JLINK_WriteReg(R11, 0x00000000)  returns 0x00 (0000ms, 0295ms total)
T20E8 000:624 JLINK_WriteReg(R12, 0x00000000)  returns 0x00 (0000ms, 0295ms total)
T20E8 000:624 JLINK_WriteReg(R13 (SP), 0x20001000)  returns 0x00 (0000ms, 0295ms total)
T20E8 000:624 JLINK_WriteReg(R14, 0x20000001)  returns 0x00 (0000ms, 0295ms total)
T20E8 000:624 JLINK_WriteReg(R15 (PC), 0x200000F4)  returns 0x00 (0000ms, 0295ms total)
T20E8 000:624 JLINK_WriteReg(XPSR, 0x01000000)  returns 0x00 (0000ms, 0295ms total)
T20E8 000:624 JLINK_WriteReg(MSP, 0x20001000)  returns 0x00 (0000ms, 0295ms total)
T20E8 000:624 JLINK_WriteReg(PSP, 0x20001000)  returns 0x00 (0000ms, 0295ms total)
T20E8 000:624 JLINK_WriteReg(CFBP, 0x00000000)  returns 0x00 (0000ms, 0295ms total)
T20E8 000:624 JLINK_SetBPEx(Addr = 0x20000000, Type = 0xFFFFFFF2)  returns 0x00000009 (0000ms, 0295ms total)
T20E8 000:624 JLINK_Go() -- CPU_ReadMem(4 bytes @ 0xE0001000) (0001ms, 0296ms total)
T20E8 000:625 JLINK_IsHalted()  returns FALSE (0000ms, 0296ms total)
T20E8 000:627 JLINK_IsHalted()  returns FALSE (0000ms, 0296ms total)
T20E8 000:628 JLINK_IsHalted()  returns FALSE (0000ms, 0296ms total)
T20E8 000:630 JLINK_IsHalted()  returns FALSE (0000ms, 0296ms total)
T20E8 000:632 JLINK_IsHalted()  returns FALSE (0000ms, 0296ms total)
T20E8 000:634 JLINK_IsHalted()  returns FALSE (0000ms, 0296ms total)
T20E8 000:636 JLINK_IsHalted()  returns FALSE (0000ms, 0296ms total)
T20E8 000:637 JLINK_IsHalted()  returns FALSE (0000ms, 0296ms total)
T20E8 000:639 JLINK_IsHalted()  returns FALSE (0000ms, 0296ms total)
T20E8 000:640 JLINK_IsHalted()  returns FALSE (0000ms, 0296ms total)
T20E8 000:642 JLINK_IsHalted()  returns FALSE (0000ms, 0296ms total)
T20E8 000:643 JLINK_IsHalted()  returns FALSE (0000ms, 0296ms total)
T20E8 000:646 JLINK_IsHalted()  returns FALSE (0000ms, 0296ms total)
T20E8 000:648 JLINK_IsHalted()  returns FALSE (0000ms, 0296ms total)
T20E8 000:649 JLINK_IsHalted()  returns FALSE (0000ms, 0296ms total)
T20E8 000:651 JLINK_IsHalted()  returns FALSE (0000ms, 0296ms total)
T20E8 000:652 JLINK_IsHalted()  returns FALSE (0000ms, 0296ms total)
T20E8 000:654 JLINK_IsHalted()  returns FALSE (0000ms, 0296ms total)
T20E8 000:655 JLINK_IsHalted()  returns FALSE (0000ms, 0296ms total)
T20E8 000:657 JLINK_IsHalted() -- CPU_ReadMem(2 bytes @ 0x20000000)  returns TRUE (0002ms, 0298ms total)
T20E8 000:659 JLINK_ReadReg(R15 (PC))  returns 0x20000000 (0000ms, 0296ms total)
T20E8 000:659 JLINK_ClrBPEx(BPHandle = 0x00000009)  returns 0x00 (0000ms, 0296ms total)
T20E8 000:659 JLINK_ReadReg(R0)  returns 0x00000000 (0000ms, 0296ms total)
T20E8 000:659 JLINK_WriteMem(0x20000164, 0x0400 Bytes, ...) - Data: 85 42 05 D0 5A 48 85 42 02 D0 5A 48 85 42 00 D1 ... -- CPU_WriteMem(1024 bytes @ 0x20000164)  returns 0x400 (0005ms, 0301ms total)
T20E8 000:664 JLINK_WriteReg(R0, 0x08001400)  returns 0x00 (0000ms, 0301ms total)
T20E8 000:664 JLINK_WriteReg(R1, 0x00000400)  returns 0x00 (0000ms, 0301ms total)
T20E8 000:664 JLINK_WriteReg(R2, 0x20000164)  returns 0x00 (0000ms, 0301ms total)
T20E8 000:664 JLINK_WriteReg(R3, 0x00000000)  returns 0x00 (0000ms, 0301ms total)
T20E8 000:664 JLINK_WriteReg(R4, 0x00000000)  returns 0x00 (0000ms, 0301ms total)
T20E8 000:664 JLINK_WriteReg(R5, 0x00000000)  returns 0x00 (0000ms, 0301ms total)
T20E8 000:664 JLINK_WriteReg(R6, 0x00000000)  returns 0x00 (0000ms, 0301ms total)
T20E8 000:664 JLINK_WriteReg(R7, 0x00000000)  returns 0x00 (0000ms, 0301ms total)
T20E8 000:664 JLINK_WriteReg(R8, 0x00000000)  returns 0x00 (0000ms, 0301ms total)
T20E8 000:664 JLINK_WriteReg(R9, 0x20000160)  returns 0x00 (0000ms, 0301ms total)
T20E8 000:664 JLINK_WriteReg(R10, 0x00000000)  returns 0x00 (0000ms, 0301ms total)
T20E8 000:664 JLINK_WriteReg(R11, 0x00000000)  returns 0x00 (0000ms, 0301ms total)
T20E8 000:664 JLINK_WriteReg(R12, 0x00000000)  returns 0x00 (0000ms, 0301ms total)
T20E8 000:664 JLINK_WriteReg(R13 (SP), 0x20001000)  returns 0x00 (0000ms, 0301ms total)
T20E8 000:664 JLINK_WriteReg(R14, 0x20000001)  returns 0x00 (0000ms, 0301ms total)
T20E8 000:664 JLINK_WriteReg(R15 (PC), 0x200000F4)  returns 0x00 (0000ms, 0301ms total)
T20E8 000:664 JLINK_WriteReg(XPSR, 0x01000000)  returns 0x00 (0000ms, 0301ms total)
T20E8 000:664 JLINK_WriteReg(MSP, 0x20001000)  returns 0x00 (0000ms, 0301ms total)
T20E8 000:664 JLINK_WriteReg(PSP, 0x20001000)  returns 0x00 (0000ms, 0301ms total)
T20E8 000:664 JLINK_WriteReg(CFBP, 0x00000000)  returns 0x00 (0000ms, 0301ms total)
T20E8 000:664 JLINK_SetBPEx(Addr = 0x20000000, Type = 0xFFFFFFF2)  returns 0x0000000A (0000ms, 0301ms total)
T20E8 000:664 JLINK_Go() -- CPU_ReadMem(4 bytes @ 0xE0001000) (0001ms, 0302ms total)
T20E8 000:665 JLINK_IsHalted()  returns FALSE (0001ms, 0303ms total)
T20E8 000:667 JLINK_IsHalted()  returns FALSE (0000ms, 0302ms total)
T20E8 000:669 JLINK_IsHalted()  returns FALSE (0000ms, 0302ms total)
T20E8 000:671 JLINK_IsHalted()  returns FALSE (0000ms, 0302ms total)
T20E8 000:672 JLINK_IsHalted()  returns FALSE (0000ms, 0302ms total)
T20E8 000:674 JLINK_IsHalted()  returns FALSE (0000ms, 0302ms total)
T20E8 000:675 JLINK_IsHalted()  returns FALSE (0000ms, 0302ms total)
T20E8 000:677 JLINK_IsHalted()  returns FALSE (0000ms, 0302ms total)
T20E8 000:678 JLINK_IsHalted()  returns FALSE (0000ms, 0302ms total)
T20E8 000:680 JLINK_IsHalted()  returns FALSE (0000ms, 0302ms total)
T20E8 000:681 JLINK_IsHalted()  returns FALSE (0000ms, 0302ms total)
T20E8 000:683 JLINK_IsHalted()  returns FALSE (0000ms, 0302ms total)
T20E8 000:684 JLINK_IsHalted()  returns FALSE (0000ms, 0302ms total)
T20E8 000:686 JLINK_IsHalted()  returns FALSE (0000ms, 0302ms total)
T20E8 000:687 JLINK_IsHalted()  returns FALSE (0000ms, 0302ms total)
T20E8 000:689 JLINK_IsHalted()  returns FALSE (0000ms, 0302ms total)
T20E8 000:691 JLINK_IsHalted()  returns FALSE (0000ms, 0302ms total)
T20E8 000:692 JLINK_IsHalted()  returns FALSE (0000ms, 0302ms total)
T20E8 000:694 JLINK_IsHalted()  returns FALSE (0000ms, 0302ms total)
T20E8 000:695 JLINK_IsHalted()  returns FALSE (0000ms, 0302ms total)
T20E8 000:697 JLINK_IsHalted() -- CPU_ReadMem(2 bytes @ 0x20000000)  returns TRUE (0002ms, 0304ms total)
T20E8 000:699 JLINK_ReadReg(R15 (PC))  returns 0x20000000 (0000ms, 0302ms total)
T20E8 000:699 JLINK_ClrBPEx(BPHandle = 0x0000000A)  returns 0x00 (0000ms, 0302ms total)
T20E8 000:699 JLINK_ReadReg(R0)  returns 0x00000000 (0000ms, 0302ms total)
T20E8 000:699 JLINK_WriteMem(0x20000164, 0x0400 Bytes, ...) - Data: 01 83 70 47 0A 46 00 21 81 8B 4F F6 F7 73 19 40 ... -- CPU_WriteMem(1024 bytes @ 0x20000164)  returns 0x400 (0004ms, 0306ms total)
T20E8 000:703 JLINK_WriteReg(R0, 0x08001800)  returns 0x00 (0000ms, 0306ms total)
T20E8 000:703 JLINK_WriteReg(R1, 0x00000400)  returns 0x00 (0000ms, 0306ms total)
T20E8 000:703 JLINK_WriteReg(R2, 0x20000164)  returns 0x00 (0000ms, 0306ms total)
T20E8 000:703 JLINK_WriteReg(R3, 0x00000000)  returns 0x00 (0000ms, 0306ms total)
T20E8 000:703 JLINK_WriteReg(R4, 0x00000000)  returns 0x00 (0000ms, 0306ms total)
T20E8 000:703 JLINK_WriteReg(R5, 0x00000000)  returns 0x00 (0000ms, 0306ms total)
T20E8 000:703 JLINK_WriteReg(R6, 0x00000000)  returns 0x00 (0000ms, 0306ms total)
T20E8 000:703 JLINK_WriteReg(R7, 0x00000000)  returns 0x00 (0000ms, 0306ms total)
T20E8 000:703 JLINK_WriteReg(R8, 0x00000000)  returns 0x00 (0000ms, 0306ms total)
T20E8 000:703 JLINK_WriteReg(R9, 0x20000160)  returns 0x00 (0000ms, 0306ms total)
T20E8 000:703 JLINK_WriteReg(R10, 0x00000000)  returns 0x00 (0000ms, 0306ms total)
T20E8 000:703 JLINK_WriteReg(R11, 0x00000000)  returns 0x00 (0000ms, 0306ms total)
T20E8 000:703 JLINK_WriteReg(R12, 0x00000000)  returns 0x00 (0000ms, 0306ms total)
T20E8 000:703 JLINK_WriteReg(R13 (SP), 0x20001000)  returns 0x00 (0000ms, 0306ms total)
T20E8 000:703 JLINK_WriteReg(R14, 0x20000001)  returns 0x00 (0000ms, 0306ms total)
T20E8 000:703 JLINK_WriteReg(R15 (PC), 0x200000F4)  returns 0x00 (0000ms, 0306ms total)
T20E8 000:703 JLINK_WriteReg(XPSR, 0x01000000)  returns 0x00 (0001ms, 0307ms total)
T20E8 000:704 JLINK_WriteReg(MSP, 0x20001000)  returns 0x00 (0000ms, 0307ms total)
T20E8 000:704 JLINK_WriteReg(PSP, 0x20001000)  returns 0x00 (0000ms, 0307ms total)
T20E8 000:704 JLINK_WriteReg(CFBP, 0x00000000)  returns 0x00 (0000ms, 0307ms total)
T20E8 000:704 JLINK_SetBPEx(Addr = 0x20000000, Type = 0xFFFFFFF2)  returns 0x0000000B (0000ms, 0307ms total)
T20E8 000:704 JLINK_Go() -- CPU_ReadMem(4 bytes @ 0xE0001000) (0001ms, 0308ms total)
T20E8 000:705 JLINK_IsHalted()  returns FALSE (0000ms, 0308ms total)
T20E8 000:707 JLINK_IsHalted()  returns FALSE (0000ms, 0308ms total)
T20E8 000:708 JLINK_IsHalted()  returns FALSE (0000ms, 0308ms total)
T20E8 000:710 JLINK_IsHalted()  returns FALSE (0000ms, 0308ms total)
T20E8 000:711 JLINK_IsHalted()  returns FALSE (0000ms, 0308ms total)
T20E8 000:713 JLINK_IsHalted()  returns FALSE (0000ms, 0308ms total)
T20E8 000:714 JLINK_IsHalted()  returns FALSE (0000ms, 0308ms total)
T20E8 000:716 JLINK_IsHalted()  returns FALSE (0000ms, 0308ms total)
T20E8 000:717 JLINK_IsHalted()  returns FALSE (0000ms, 0308ms total)
T20E8 000:719 JLINK_IsHalted()  returns FALSE (0000ms, 0308ms total)
T20E8 000:720 JLINK_IsHalted()  returns FALSE (0000ms, 0308ms total)
T20E8 000:722 JLINK_IsHalted()  returns FALSE (0000ms, 0308ms total)
T20E8 000:723 JLINK_IsHalted()  returns FALSE (0000ms, 0308ms total)
T20E8 000:725 JLINK_IsHalted()  returns FALSE (0000ms, 0308ms total)
T20E8 000:727 JLINK_IsHalted()  returns FALSE (0000ms, 0308ms total)
T20E8 000:728 JLINK_IsHalted()  returns FALSE (0000ms, 0308ms total)
T20E8 000:730 JLINK_IsHalted()  returns FALSE (0000ms, 0308ms total)
T20E8 000:731 JLINK_IsHalted()  returns FALSE (0000ms, 0308ms total)
T20E8 000:733 JLINK_IsHalted()  returns FALSE (0000ms, 0308ms total)
T20E8 000:735 JLINK_IsHalted()  returns FALSE (0000ms, 0308ms total)
T20E8 000:736 JLINK_IsHalted() -- CPU_ReadMem(2 bytes @ 0x20000000)  returns TRUE (0002ms, 0310ms total)
T20E8 000:738 JLINK_ReadReg(R15 (PC))  returns 0x20000000 (0000ms, 0308ms total)
T20E8 000:738 JLINK_ClrBPEx(BPHandle = 0x0000000B)  returns 0x00 (0000ms, 0308ms total)
T20E8 000:738 JLINK_ReadReg(R0)  returns 0x00000000 (0000ms, 0308ms total)
T20E8 000:739 JLINK_WriteMem(0x20000164, 0x0400 Bytes, ...) - Data: 04 40 B0 89 04 43 AC 82 01 A8 FE F7 B8 FE C6 48 ... -- CPU_WriteMem(1024 bytes @ 0x20000164)  returns 0x400 (0004ms, 0312ms total)
T20E8 000:743 JLINK_WriteReg(R0, 0x08001C00)  returns 0x00 (0000ms, 0312ms total)
T20E8 000:743 JLINK_WriteReg(R1, 0x00000400)  returns 0x00 (0000ms, 0312ms total)
T20E8 000:743 JLINK_WriteReg(R2, 0x20000164)  returns 0x00 (0000ms, 0312ms total)
T20E8 000:743 JLINK_WriteReg(R3, 0x00000000)  returns 0x00 (0000ms, 0312ms total)
T20E8 000:743 JLINK_WriteReg(R4, 0x00000000)  returns 0x00 (0000ms, 0312ms total)
T20E8 000:743 JLINK_WriteReg(R5, 0x00000000)  returns 0x00 (0000ms, 0312ms total)
T20E8 000:743 JLINK_WriteReg(R6, 0x00000000)  returns 0x00 (0000ms, 0312ms total)
T20E8 000:743 JLINK_WriteReg(R7, 0x00000000)  returns 0x00 (0000ms, 0312ms total)
T20E8 000:743 JLINK_WriteReg(R8, 0x00000000)  returns 0x00 (0000ms, 0312ms total)
T20E8 000:743 JLINK_WriteReg(R9, 0x20000160)  returns 0x00 (0000ms, 0312ms total)
T20E8 000:743 JLINK_WriteReg(R10, 0x00000000)  returns 0x00 (0000ms, 0312ms total)
T20E8 000:743 JLINK_WriteReg(R11, 0x00000000)  returns 0x00 (0000ms, 0312ms total)
T20E8 000:743 JLINK_WriteReg(R12, 0x00000000)  returns 0x00 (0000ms, 0312ms total)
T20E8 000:743 JLINK_WriteReg(R13 (SP), 0x20001000)  returns 0x00 (0000ms, 0312ms total)
T20E8 000:743 JLINK_WriteReg(R14, 0x20000001)  returns 0x00 (0000ms, 0312ms total)
T20E8 000:743 JLINK_WriteReg(R15 (PC), 0x200000F4)  returns 0x00 (0000ms, 0312ms total)
T20E8 000:743 JLINK_WriteReg(XPSR, 0x01000000)  returns 0x00 (0000ms, 0312ms total)
T20E8 000:743 JLINK_WriteReg(MSP, 0x20001000)  returns 0x00 (0000ms, 0312ms total)
T20E8 000:743 JLINK_WriteReg(PSP, 0x20001000)  returns 0x00 (0000ms, 0312ms total)
T20E8 000:743 JLINK_WriteReg(CFBP, 0x00000000)  returns 0x00 (0000ms, 0312ms total)
T20E8 000:743 JLINK_SetBPEx(Addr = 0x20000000, Type = 0xFFFFFFF2)  returns 0x0000000C (0000ms, 0312ms total)
T20E8 000:743 JLINK_Go() -- CPU_ReadMem(4 bytes @ 0xE0001000) (0001ms, 0313ms total)
T20E8 000:744 JLINK_IsHalted()  returns FALSE (0000ms, 0313ms total)
T20E8 000:748 JLINK_IsHalted()  returns FALSE (0000ms, 0313ms total)
T20E8 000:749 JLINK_IsHalted()  returns FALSE (0000ms, 0313ms total)
T20E8 000:751 JLINK_IsHalted()  returns FALSE (0000ms, 0313ms total)
T20E8 000:754 JLINK_IsHalted()  returns FALSE (0000ms, 0313ms total)
T20E8 000:756 JLINK_IsHalted()  returns FALSE (0000ms, 0313ms total)
T20E8 000:757 JLINK_IsHalted()  returns FALSE (0000ms, 0313ms total)
T20E8 000:759 JLINK_IsHalted()  returns FALSE (0000ms, 0313ms total)
T20E8 000:760 JLINK_IsHalted()  returns FALSE (0000ms, 0313ms total)
T20E8 000:762 JLINK_IsHalted()  returns FALSE (0000ms, 0313ms total)
T20E8 000:763 JLINK_IsHalted()  returns FALSE (0000ms, 0313ms total)
T20E8 000:765 JLINK_IsHalted()  returns FALSE (0000ms, 0313ms total)
T20E8 000:766 JLINK_IsHalted()  returns FALSE (0000ms, 0313ms total)
T20E8 000:768 JLINK_IsHalted()  returns FALSE (0000ms, 0313ms total)
T20E8 000:769 JLINK_IsHalted()  returns FALSE (0000ms, 0313ms total)
T20E8 000:771 JLINK_IsHalted()  returns FALSE (0000ms, 0313ms total)
T20E8 000:772 JLINK_IsHalted()  returns FALSE (0000ms, 0313ms total)
T20E8 000:774 JLINK_IsHalted()  returns FALSE (0000ms, 0313ms total)
T20E8 000:775 JLINK_IsHalted() -- CPU_ReadMem(2 bytes @ 0x20000000)  returns TRUE (0002ms, 0315ms total)
T20E8 000:777 JLINK_ReadReg(R15 (PC))  returns 0x20000000 (0000ms, 0313ms total)
T20E8 000:777 JLINK_ClrBPEx(BPHandle = 0x0000000C)  returns 0x00 (0000ms, 0313ms total)
T20E8 000:777 JLINK_ReadReg(R0)  returns 0x00000000 (0000ms, 0313ms total)
T20E8 000:778 JLINK_WriteMem(0x20000164, 0x0400 Bytes, ...) - Data: 4F F0 01 0B 01 E0 4F F0 02 0B 8D 48 85 42 00 D1 ... -- CPU_WriteMem(1024 bytes @ 0x20000164)  returns 0x400 (0004ms, 0317ms total)
T20E8 000:782 JLINK_WriteReg(R0, 0x08002000)  returns 0x00 (0000ms, 0317ms total)
T20E8 000:782 JLINK_WriteReg(R1, 0x00000400)  returns 0x00 (0000ms, 0317ms total)
T20E8 000:782 JLINK_WriteReg(R2, 0x20000164)  returns 0x00 (0000ms, 0317ms total)
T20E8 000:782 JLINK_WriteReg(R3, 0x00000000)  returns 0x00 (0000ms, 0317ms total)
T20E8 000:782 JLINK_WriteReg(R4, 0x00000000)  returns 0x00 (0000ms, 0317ms total)
T20E8 000:782 JLINK_WriteReg(R5, 0x00000000)  returns 0x00 (0000ms, 0317ms total)
T20E8 000:782 JLINK_WriteReg(R6, 0x00000000)  returns 0x00 (0000ms, 0317ms total)
T20E8 000:782 JLINK_WriteReg(R7, 0x00000000)  returns 0x00 (0000ms, 0317ms total)
T20E8 000:782 JLINK_WriteReg(R8, 0x00000000)  returns 0x00 (0000ms, 0317ms total)
T20E8 000:782 JLINK_WriteReg(R9, 0x20000160)  returns 0x00 (0000ms, 0317ms total)
T20E8 000:782 JLINK_WriteReg(R10, 0x00000000)  returns 0x00 (0000ms, 0317ms total)
T20E8 000:782 JLINK_WriteReg(R11, 0x00000000)  returns 0x00 (0000ms, 0317ms total)
T20E8 000:782 JLINK_WriteReg(R12, 0x00000000)  returns 0x00 (0000ms, 0317ms total)
T20E8 000:782 JLINK_WriteReg(R13 (SP), 0x20001000)  returns 0x00 (0000ms, 0317ms total)
T20E8 000:782 JLINK_WriteReg(R14, 0x20000001)  returns 0x00 (0000ms, 0317ms total)
T20E8 000:782 JLINK_WriteReg(R15 (PC), 0x200000F4)  returns 0x00 (0000ms, 0317ms total)
T20E8 000:782 JLINK_WriteReg(XPSR, 0x01000000)  returns 0x00 (0000ms, 0317ms total)
T20E8 000:782 JLINK_WriteReg(MSP, 0x20001000)  returns 0x00 (0000ms, 0317ms total)
T20E8 000:782 JLINK_WriteReg(PSP, 0x20001000)  returns 0x00 (0000ms, 0317ms total)
T20E8 000:782 JLINK_WriteReg(CFBP, 0x00000000)  returns 0x00 (0000ms, 0317ms total)
